
T2270 000:342 SEGGER J-Link V6.10i Log File (0000ms, 0028ms total)
T2270 000:342 DLL Compiled: Oct 25 2016 19:31:51 (0000ms, 0028ms total)
T2270 000:342 Logging started @ 2018-01-10 22:01 (0000ms, 0028ms total)
T2270 000:342 JLINK_SetWarnOutHandler(...) (0000ms, 0028ms total)
T2270 000:342 JLINK_OpenEx(...)
Firmware: J-Link ARM V8 compiled Nov 28 2014 13:44:46
Hardware: V8.00
S/N: 799713843
Feature(s): RDI,FlashDL,FlashBP,JFlash,GDBFULLWEBSRV Webserver running on local port 19080 (0034ms, 0062ms total)
T2270 000:342   returns O.K. (0034ms, 0062ms total)
T2270 000:376 JLINK_SetErrorOutHandler(...) (0000ms, 0062ms total)
T2270 000:376 JLINK_ExecCommand("ProjectFile = "E:\Desktop\RoboMaster 2018\云台+底盘电机\云台+底盘电机 V1.3.1.8\USER\JLinkSettings.ini"", ...).   returns 0x00 (0125ms, 0187ms total)
T2270 000:531 JLINK_ExecCommand("Device = STM32F407ZG", ...). Device "STM32F407ZG" selected.  returns 0x00 (0022ms, 0209ms total)
T2270 000:553 JLINK_ExecCommand("DisableConnectionTimeout", ...).   returns 0x01 (0000ms, 0209ms total)
T2270 000:553 JLINK_GetHardwareVersion()  returns 0x13880 (0000ms, 0209ms total)
T2270 000:553 JLINK_GetDLLVersion()  returns 61009 (0000ms, 0209ms total)
T2270 000:553 JLINK_GetFirmwareString(...) (0000ms, 0209ms total)
T2270 000:637 JLINK_GetDLLVersion()  returns 61009 (0000ms, 0209ms total)
T2270 000:637 JLINK_GetCompileDateTime() (0000ms, 0209ms total)
T2270 000:652 JLINK_GetFirmwareString(...) (0000ms, 0209ms total)
T2270 000:668 JLINK_GetHardwareVersion()  returns 0x13880 (0000ms, 0209ms total)
T2270 000:720 JLINK_TIF_Select(JLINKARM_TIF_SWD)  returns 0x00 (0002ms, 0211ms total)
T2270 000:722 JLINK_SetSpeed(1000) (0000ms, 0211ms total)
T2270 000:722 JLINK_GetId() >0x108 TIF>Found SWD-DP with ID 0x2BA01477 >0x0D TIF> >0x28 TIF> >0x0D TIF> >0x28 TIF> >0x0D TIF> >0x28 TIF> >0x0D TIF> >0x28 TIF> >0x0D TIF> >0x21 TIF> >0x0D TIF> >0x28 TIF> >0x0D TIF> >0x28 TIF> >0x0D TIF> >0x28 TIF> >0x0D TIF> >0x21 TIF> >0x0D TIF> >0x21 TIF> >0x0D TIF> >0x28 TIF> >0x0D TIF> >0x21 TIF> >0x0D TIF> >0x21 TIF> >0x0D TIF> >0x28 TIF> >0x0D TIF> >0x21 TIF> >0x0D TIF> >0x21 TIF> >0x0D TIF> >0x28 TIF> >0x0D TIF> >0x21 TIF> >0x0D TIF> >0x21 TIF> >0x0D TIF>
 >0x28 TIF> >0x0D TIF> >0x21 TIF> >0x0D TIF> >0x21 TIF> >0x0D TIF> >0x28 TIF> >0x0D TIF> >0x21 TIF> >0x0D TIF> >0x21 TIF> >0x108 TIF>Found SWD-DP with ID 0x2BA01477 >0x0D TIF> >0x28 TIF> >0x0D TIF> >0x28 TIF> >0x0D TIF> >0x28 TIF> >0x0D TIF> >0x28 TIF> >0x0D TIF> >0x21 TIF> >0x0D TIF> >0x28 TIF> >0x0D TIF> >0x28 TIF> >0x0D TIF> >0x21 TIF> >0x0D TIF> >0x21 TIF> >0x0D TIF> >0x21 TIF>AP-IDR: 0x24770011, Type: AHB-AP >0x0D TIF> >0x28 TIF> >0x0D TIF> >0x28 TIF> >0x0D TIF> >0x28 TIF> >0x0D TIF> >0x21 TIF>
 >0x0D TIF> >0x21 TIF> >0x0D TIF> >0x28 TIF> >0x0D TIF> >0x21 TIF> >0x0D TIF> >0x21 TIF>Found Cortex-M4 r0p1, Little endian. -- CPU_ReadMem(4 bytes @ 0xE000EDF0) -- CPU_ReadMem(4 bytes @ 0xE0002000)FPUnit: 6 code (BP) slots and 2 literal slots -- CPU_ReadMem(4 bytes @ 0xE000EDFC) -- CPU_ReadMem(4 bytes @ 0xE0001000) -- CPU_WriteMem(4 bytes @ 0xE0001000) -- CPU_ReadMem(4 bytes @ 0xE000ED88) -- CPU_WriteMem(4 bytes @ 0xE000ED88) -- CPU_ReadMem(4 bytes @ 0xE000ED88) -- CPU_WriteMem(4 bytes @ 0xE000ED88)
CoreSight components:ROMTbl 0 @ E00FF000 -- CPU_ReadMem(16 bytes @ 0xE00FF000) -- CPU_ReadMem(16 bytes @ 0xE000EFF0) -- CPU_ReadMem(16 bytes @ 0xE000EFE0)ROMTbl 0 [0]: FFF0F000, CID: B105E00D, PID: 000BB00C SCS -- CPU_ReadMem(16 bytes @ 0xE0001FF0) -- CPU_ReadMem(16 bytes @ 0xE0001FE0)ROMTbl 0 [1]: FFF02000, CID: B105E00D, PID: 003BB002 DWT -- CPU_ReadMem(16 bytes @ 0xE0002FF0) -- CPU_ReadMem(16 bytes @ 0xE0002FE0)ROMTbl 0 [2]: FFF03000, CID: B105E00D, PID: 002BB003 FPB
 -- CPU_ReadMem(16 bytes @ 0xE0000FF0) -- CPU_ReadMem(16 bytes @ 0xE0000FE0)ROMTbl 0 [3]: FFF01000, CID: B105E00D, PID: 003BB001 ITM -- CPU_ReadMem(16 bytes @ 0xE00FF010) -- CPU_ReadMem(16 bytes @ 0xE0040FF0) -- CPU_ReadMem(16 bytes @ 0xE0040FE0)ROMTbl 0 [4]: FFF41000, CID: B105900D, PID: 000BB9A1 TPIU -- CPU_ReadMem(16 bytes @ 0xE0041FF0) -- CPU_ReadMem(16 bytes @ 0xE0041FE0)ROMTbl 0 [5]: FFF42000, CID: B105900D, PID: 000BB925 ETM >0x0D TIF> >0x21 TIF>  returns 0x2BA01477 (0352ms, 0563ms total)
T2270 001:074 JLINK_GetDLLVersion()  returns 61009 (0000ms, 0563ms total)
T2270 001:074 JLINK_CORE_GetFound()  returns 0xE0000FF (0000ms, 0563ms total)
T2270 001:074 JLINK_GetDebugInfo(0x100) -- Value=0xE00FF000  returns 0x00 (0000ms, 0563ms total)
T2270 001:093 JLINK_GetDebugInfo(0x100) -- Value=0xE00FF000  returns 0x00 (0000ms, 0563ms total)
T2270 001:093 JLINK_GetDebugInfo(0x101) -- Value=0xE0041000  returns 0x00 (0000ms, 0563ms total)
T2270 001:093 JLINK_GetDebugInfo(0x102) -- Value=0x00000000  returns 0x00 (0000ms, 0563ms total)
T2270 001:093 JLINK_GetDebugInfo(0x103) -- Value=0xE0040000  returns 0x00 (0000ms, 0563ms total)
T2270 001:093 JLINK_GetDebugInfo(0x104) -- Value=0xE0000000  returns 0x00 (0000ms, 0563ms total)
T2270 001:093 JLINK_GetDebugInfo(0x105) -- Value=0xE0001000  returns 0x00 (0000ms, 0563ms total)
T2270 001:093 JLINK_GetDebugInfo(0x106) -- Value=0xE0002000  returns 0x00 (0000ms, 0563ms total)
T2270 001:093 JLINK_GetDebugInfo(0x107) -- Value=0xE000E000  returns 0x00 (0000ms, 0563ms total)
T2270 001:093 JLINK_GetDebugInfo(0x10C) -- Value=0xE000EDF0  returns 0x00 (0000ms, 0563ms total)
T2270 001:093 JLINK_ReadMemU32(0xE000EF40, 0x0001 Items, ...) -- CPU is running -- CPU_ReadMem(4 bytes @ 0xE000EF40) - Data: 21 00 11 10  returns 0x01 (0001ms, 0564ms total)
T2270 001:094 JLINK_ReadMemU32(0xE000EF44, 0x0001 Items, ...) -- CPU is running -- CPU_ReadMem(4 bytes @ 0xE000EF44) - Data: 11 00 00 11  returns 0x01 (0000ms, 0564ms total)
T2270 001:094 JLINK_ReadMemU32(0xE000ED00, 0x0001 Items, ...) -- CPU is running -- CPU_ReadMem(4 bytes @ 0xE000ED00) - Data: 41 C2 0F 41  returns 0x01 (0001ms, 0565ms total)
T2270 001:095 JLINK_SetResetType(JLINKARM_RESET_TYPE_NORMAL)  returns JLINKARM_RESET_TYPE_NORMAL (0000ms, 0565ms total)
T2270 001:095 JLINK_Reset() -- CPU is running -- CPU_WriteMem(4 bytes @ 0xE000EDF0) -- CPU is running -- CPU_WriteMem(4 bytes @ 0xE000EDFC) >0x35 TIF> -- CPU is running -- CPU_WriteMem(4 bytes @ 0xE000ED0C) -- CPU is running -- CPU_ReadMem(4 bytes @ 0xE000EDF0) -- CPU is running -- CPU_ReadMem(4 bytes @ 0xE000EDF0) -- CPU is running -- CPU_WriteMem(4 bytes @ 0xE000EDF0) -- CPU is running -- CPU_WriteMem(4 bytes @ 0xE000EDFC) -- CPU is running -- CPU_ReadMem(4 bytes @ 0xE000EDF0)
 -- CPU_WriteMem(4 bytes @ 0xE0002000) -- CPU_ReadMem(4 bytes @ 0xE000EDFC) -- CPU_ReadMem(4 bytes @ 0xE0001000) (0022ms, 0587ms total)
T2270 001:117 JLINK_Halt()  returns 0x00 (0000ms, 0587ms total)
T2270 001:117 JLINK_IsHalted()  returns TRUE (0000ms, 0587ms total)
T2270 001:117 JLINK_ReadMemU32(0xE000EDF0, 0x0001 Items, ...) -- CPU_ReadMem(4 bytes @ 0xE000EDF0) - Data: 03 00 03 00  returns 0x01 (0001ms, 0588ms total)
T2270 001:118 JLINK_WriteU32(0xE000EDF0, 0xA05F0003) -- CPU_WriteMem(4 bytes @ 0xE000EDF0)  returns 0x00 (0001ms, 0589ms total)
T2270 001:119 JLINK_WriteU32(0xE000EDFC, 0x01000000) -- CPU_WriteMem(4 bytes @ 0xE000EDFC)  returns 0x00 (0000ms, 0589ms total)
T2270 001:212 JLINK_GetHWStatus(...)  returns 0x00 (0000ms, 0589ms total)
T2270 001:258 JLINK_GetNumBPUnits(Type = 0xFFFFFF00)  returns 0x06 (0000ms, 0589ms total)
T2270 001:258 JLINK_GetNumBPUnits(Type = 0xF0)  returns 0x2000 (0000ms, 0589ms total)
T2270 001:258 JLINK_GetNumWPUnits()  returns 0x04 (0000ms, 0589ms total)
T2270 001:315 JLINK_GetSpeed()  returns 0x3E8 (0000ms, 0589ms total)
T2270 001:379 JLINK_ReadMemU32(0xE000E004, 0x0001 Items, ...) -- CPU_ReadMem(4 bytes @ 0xE000E004) - Data: 02 00 00 00  returns 0x01 (0000ms, 0589ms total)
T2270 001:379 JLINK_ReadMemU32(0xE000E004, 0x0001 Items, ...) -- CPU_ReadMem(4 bytes @ 0xE000E004) - Data: 02 00 00 00  returns 0x01 (0001ms, 0590ms total)
T2270 001:380 JLINK_WriteMem(0xE0001000, 0x001C Bytes, ...) - Data: 01 00 00 00 00 00 00 00 00 00 00 00 00 00 00 00 ... -- CPU_WriteMem(28 bytes @ 0xE0001000)  returns 0x1C (0001ms, 0591ms total)
T2270 001:381 JLINK_ReadMem (0xE0001000, 0x001C Bytes, ...) -- CPU_ReadMem(28 bytes @ 0xE0001000) - Data: 01 00 00 40 00 00 00 00 00 00 00 00 00 00 00 00 ...  returns 0x00 (0001ms, 0592ms total)
T2270 001:382 JLINK_Halt()  returns 0x00 (0000ms, 0592ms total)
T2270 001:382 JLINK_IsHalted()  returns TRUE (0000ms, 0592ms total)
T2270 001:394 JLINK_WriteMem(0x20000000, 0x0180 Bytes, ...) - Data: 00 BE 0A E0 0D 78 2D 06 68 40 08 24 40 00 00 D3 ... -- CPU_WriteMem(384 bytes @ 0x20000000)  returns 0x180 (0007ms, 0599ms total)
T2270 001:401 JLINK_WriteReg(R0, 0x08000000)  returns 0x00 (0000ms, 0599ms total)
T2270 001:401 JLINK_WriteReg(R1, 0x0A037A00)  returns 0x00 (0000ms, 0599ms total)
T2270 001:401 JLINK_WriteReg(R2, 0x00000001)  returns 0x00 (0000ms, 0599ms total)
T2270 001:401 JLINK_WriteReg(R3, 0x00000000)  returns 0x00 (0000ms, 0599ms total)
T2270 001:401 JLINK_WriteReg(R4, 0x00000000)  returns 0x00 (0000ms, 0599ms total)
T2270 001:401 JLINK_WriteReg(R5, 0x00000000)  returns 0x00 (0000ms, 0599ms total)
T2270 001:401 JLINK_WriteReg(R6, 0x00000000)  returns 0x00 (0000ms, 0599ms total)
T2270 001:401 JLINK_WriteReg(R7, 0x00000000)  returns 0x00 (0000ms, 0599ms total)
T2270 001:401 JLINK_WriteReg(R8, 0x00000000)  returns 0x00 (0000ms, 0599ms total)
T2270 001:401 JLINK_WriteReg(R9, 0x2000017C)  returns 0x00 (0000ms, 0599ms total)
T2270 001:401 JLINK_WriteReg(R10, 0x00000000)  returns 0x00 (0000ms, 0599ms total)
T2270 001:401 JLINK_WriteReg(R11, 0x00000000)  returns 0x00 (0000ms, 0599ms total)
T2270 001:401 JLINK_WriteReg(R12, 0x00000000)  returns 0x00 (0000ms, 0599ms total)
T2270 001:401 JLINK_WriteReg(R13 (SP), 0x20001000)  returns 0x00 (0000ms, 0599ms total)
T2270 001:401 JLINK_WriteReg(R14, 0x20000001)  returns 0x00 (0000ms, 0599ms total)
T2270 001:401 JLINK_WriteReg(R15 (PC), 0x20000054)  returns 0x00 (0000ms, 0599ms total)
T2270 001:401 JLINK_WriteReg(XPSR, 0x01000000)  returns 0x00 (0000ms, 0599ms total)
T2270 001:401 JLINK_WriteReg(MSP, 0x20001000)  returns 0x00 (0000ms, 0599ms total)
T2270 001:401 JLINK_WriteReg(PSP, 0x20001000)  returns 0x00 (0000ms, 0599ms total)
T2270 001:401 JLINK_WriteReg(CFBP, 0x00000000)  returns 0x00 (0000ms, 0599ms total)
T2270 001:401 JLINK_SetBPEx(Addr = 0x20000000, Type = 0xFFFFFFF2) -- CPU_ReadMem(2 bytes @ 0x20000000)  returns 0x00000001 (0001ms, 0600ms total)
T2270 001:402 JLINK_Go() -- CPU_WriteMem(2 bytes @ 0x20000000) -- CPU_ReadMem(4 bytes @ 0xE0001000) -- CPU_WriteMem(4 bytes @ 0xE0002008) -- CPU_WriteMem(4 bytes @ 0xE000200C) -- CPU_WriteMem(4 bytes @ 0xE0002010) -- CPU_WriteMem(4 bytes @ 0xE0002014) -- CPU_WriteMem(4 bytes @ 0xE0002018) -- CPU_WriteMem(4 bytes @ 0xE000201C) -- CPU_WriteMem(4 bytes @ 0xE0001004) (0008ms, 0608ms total)
T2270 001:410 JLINK_IsHalted() -- CPU_ReadMem(2 bytes @ 0x20000000)  returns TRUE (0006ms, 0614ms total)
T2270 001:416 JLINK_ReadReg(R15 (PC))  returns 0x20000000 (0000ms, 0608ms total)
T2270 001:416 JLINK_ClrBPEx(BPHandle = 0x00000001)  returns 0x00 (0000ms, 0608ms total)
T2270 001:416 JLINK_ReadReg(R0)  returns 0x00000000 (0000ms, 0608ms total)
T2270 001:420 JLINK_WriteReg(R0, 0x08000000)  returns 0x00 (0000ms, 0608ms total)
T2270 001:420 JLINK_WriteReg(R1, 0x00004000)  returns 0x00 (0000ms, 0608ms total)
T2270 001:420 JLINK_WriteReg(R2, 0x000000FF)  returns 0x00 (0000ms, 0608ms total)
T2270 001:420 JLINK_WriteReg(R3, 0x00000000)  returns 0x00 (0000ms, 0608ms total)
T2270 001:420 JLINK_WriteReg(R4, 0x00000000)  returns 0x00 (0000ms, 0608ms total)
T2270 001:420 JLINK_WriteReg(R5, 0x00000000)  returns 0x00 (0000ms, 0608ms total)
T2270 001:420 JLINK_WriteReg(R6, 0x00000000)  returns 0x00 (0000ms, 0608ms total)
T2270 001:420 JLINK_WriteReg(R7, 0x00000000)  returns 0x00 (0000ms, 0608ms total)
T2270 001:420 JLINK_WriteReg(R8, 0x00000000)  returns 0x00 (0000ms, 0608ms total)
T2270 001:420 JLINK_WriteReg(R9, 0x2000017C)  returns 0x00 (0000ms, 0608ms total)
T2270 001:420 JLINK_WriteReg(R10, 0x00000000)  returns 0x00 (0000ms, 0608ms total)
T2270 001:420 JLINK_WriteReg(R11, 0x00000000)  returns 0x00 (0000ms, 0608ms total)
T2270 001:420 JLINK_WriteReg(R12, 0x00000000)  returns 0x00 (0000ms, 0608ms total)
T2270 001:420 JLINK_WriteReg(R13 (SP), 0x20001000)  returns 0x00 (0000ms, 0608ms total)
T2270 001:420 JLINK_WriteReg(R14, 0x20000001)  returns 0x00 (0000ms, 0608ms total)
T2270 001:420 JLINK_WriteReg(R15 (PC), 0x20000020)  returns 0x00 (0000ms, 0608ms total)
T2270 001:420 JLINK_WriteReg(XPSR, 0x01000000)  returns 0x00 (0000ms, 0608ms total)
T2270 001:420 JLINK_WriteReg(MSP, 0x20001000)  returns 0x00 (0000ms, 0608ms total)
T2270 001:420 JLINK_WriteReg(PSP, 0x20001000)  returns 0x00 (0000ms, 0608ms total)
T2270 001:420 JLINK_WriteReg(CFBP, 0x00000000)  returns 0x00 (0000ms, 0608ms total)
T2270 001:420 JLINK_SetBPEx(Addr = 0x20000000, Type = 0xFFFFFFF2)  returns 0x00000002 (0000ms, 0608ms total)
T2270 001:420 JLINK_Go() -- CPU_ReadMem(4 bytes @ 0xE0001000) (0003ms, 0611ms total)
T2270 001:423 JLINK_IsHalted() -- CPU_ReadMem(2 bytes @ 0x20000000)  returns TRUE (0006ms, 0617ms total)
T2270 001:429 JLINK_ReadReg(R15 (PC))  returns 0x20000000 (0000ms, 0611ms total)
T2270 001:429 JLINK_ClrBPEx(BPHandle = 0x00000002)  returns 0x00 (0000ms, 0611ms total)
T2270 001:429 JLINK_ReadReg(R0)  returns 0x00000001 (0000ms, 0611ms total)
T2270 001:429 JLINK_WriteReg(R0, 0x08000000)  returns 0x00 (0000ms, 0611ms total)
T2270 001:429 JLINK_WriteReg(R1, 0x00004000)  returns 0x00 (0000ms, 0611ms total)
T2270 001:429 JLINK_WriteReg(R2, 0x000000FF)  returns 0x00 (0000ms, 0611ms total)
T2270 001:429 JLINK_WriteReg(R3, 0x00000000)  returns 0x00 (0000ms, 0611ms total)
T2270 001:429 JLINK_WriteReg(R4, 0x00000000)  returns 0x00 (0000ms, 0611ms total)
T2270 001:429 JLINK_WriteReg(R5, 0x00000000)  returns 0x00 (0000ms, 0611ms total)
T2270 001:429 JLINK_WriteReg(R6, 0x00000000)  returns 0x00 (0000ms, 0611ms total)
T2270 001:429 JLINK_WriteReg(R7, 0x00000000)  returns 0x00 (0000ms, 0611ms total)
T2270 001:429 JLINK_WriteReg(R8, 0x00000000)  returns 0x00 (0000ms, 0611ms total)
T2270 001:429 JLINK_WriteReg(R9, 0x2000017C)  returns 0x00 (0000ms, 0611ms total)
T2270 001:429 JLINK_WriteReg(R10, 0x00000000)  returns 0x00 (0000ms, 0611ms total)
T2270 001:429 JLINK_WriteReg(R11, 0x00000000)  returns 0x00 (0000ms, 0611ms total)
T2270 001:429 JLINK_WriteReg(R12, 0x00000000)  returns 0x00 (0000ms, 0611ms total)
T2270 001:429 JLINK_WriteReg(R13 (SP), 0x20001000)  returns 0x00 (0000ms, 0611ms total)
T2270 001:429 JLINK_WriteReg(R14, 0x20000001)  returns 0x00 (0000ms, 0611ms total)
T2270 001:429 JLINK_WriteReg(R15 (PC), 0x200000BC)  returns 0x00 (0000ms, 0611ms total)
T2270 001:429 JLINK_WriteReg(XPSR, 0x01000000)  returns 0x00 (0000ms, 0611ms total)
T2270 001:429 JLINK_WriteReg(MSP, 0x20001000)  returns 0x00 (0000ms, 0611ms total)
T2270 001:429 JLINK_WriteReg(PSP, 0x20001000)  returns 0x00 (0000ms, 0611ms total)
T2270 001:429 JLINK_WriteReg(CFBP, 0x00000000)  returns 0x00 (0000ms, 0611ms total)
T2270 001:429 JLINK_SetBPEx(Addr = 0x20000000, Type = 0xFFFFFFF2)  returns 0x00000003 (0000ms, 0611ms total)
T2270 001:429 JLINK_Go() -- CPU_ReadMem(4 bytes @ 0xE0001000) (0003ms, 0614ms total)
T2270 001:432 JLINK_IsHalted()  returns FALSE (0000ms, 0614ms total)
T2270 001:694 JLINK_IsHalted()  returns FALSE (0000ms, 0614ms total)
T2270 001:696 JLINK_IsHalted()  returns FALSE (0000ms, 0614ms total)
T2270 001:698 JLINK_IsHalted()  returns FALSE (0000ms, 0614ms total)
T2270 001:703 JLINK_IsHalted()  returns FALSE (0000ms, 0614ms total)
T2270 001:705 JLINK_IsHalted()  returns FALSE (0000ms, 0614ms total)
T2270 001:710 JLINK_IsHalted()  returns FALSE (0000ms, 0614ms total)
T2270 001:720 JLINK_IsHalted()  returns FALSE (0000ms, 0614ms total)
T2270 001:722 JLINK_IsHalted()  returns FALSE (0000ms, 0614ms total)
T2270 001:734 JLINK_IsHalted()  returns FALSE (0000ms, 0614ms total)
T2270 001:736 JLINK_IsHalted()  returns FALSE (0000ms, 0614ms total)
T2270 001:740 JLINK_IsHalted()  returns FALSE (0000ms, 0614ms total)
T2270 001:746 JLINK_IsHalted()  returns FALSE (0000ms, 0614ms total)
T2270 001:748 JLINK_IsHalted()  returns FALSE (0000ms, 0614ms total)
T2270 001:750 JLINK_IsHalted()  returns FALSE (0000ms, 0614ms total)
T2270 001:752 JLINK_IsHalted()  returns FALSE (0000ms, 0614ms total)
T2270 001:754 JLINK_IsHalted()  returns FALSE (0001ms, 0615ms total)
T2270 001:757 JLINK_IsHalted()  returns FALSE (0000ms, 0614ms total)
T2270 001:759 JLINK_IsHalted()  returns FALSE (0000ms, 0614ms total)
T2270 001:761 JLINK_IsHalted()  returns FALSE (0000ms, 0614ms total)
T2270 001:763 JLINK_IsHalted()  returns FALSE (0000ms, 0614ms total)
T2270 001:773 JLINK_IsHalted()  returns FALSE (0001ms, 0615ms total)
T2270 001:779 JLINK_IsHalted()  returns FALSE (0000ms, 0614ms total)
T2270 001:781 JLINK_IsHalted() -- CPU_ReadMem(2 bytes @ 0x20000000)  returns TRUE (0005ms, 0619ms total)
T2270 001:786 JLINK_ReadReg(R15 (PC))  returns 0x20000000 (0000ms, 0614ms total)
T2270 001:786 JLINK_ClrBPEx(BPHandle = 0x00000003)  returns 0x00 (0000ms, 0614ms total)
T2270 001:786 JLINK_ReadReg(R0)  returns 0x00000000 (0000ms, 0614ms total)
T2270 001:798 JLINK_WriteReg(R0, 0x08004000)  returns 0x00 (0000ms, 0614ms total)
T2270 001:798 JLINK_WriteReg(R1, 0x00004000)  returns 0x00 (0000ms, 0614ms total)
T2270 001:798 JLINK_WriteReg(R2, 0x000000FF)  returns 0x00 (0000ms, 0614ms total)
T2270 001:798 JLINK_WriteReg(R3, 0x00000000)  returns 0x00 (0000ms, 0614ms total)
T2270 001:798 JLINK_WriteReg(R4, 0x00000000)  returns 0x00 (0000ms, 0614ms total)
T2270 001:798 JLINK_WriteReg(R5, 0x00000000)  returns 0x00 (0000ms, 0614ms total)
T2270 001:798 JLINK_WriteReg(R6, 0x00000000)  returns 0x00 (0000ms, 0614ms total)
T2270 001:798 JLINK_WriteReg(R7, 0x00000000)  returns 0x00 (0000ms, 0614ms total)
T2270 001:798 JLINK_WriteReg(R8, 0x00000000)  returns 0x00 (0000ms, 0614ms total)
T2270 001:798 JLINK_WriteReg(R9, 0x2000017C)  returns 0x00 (0000ms, 0614ms total)
T2270 001:798 JLINK_WriteReg(R10, 0x00000000)  returns 0x00 (0000ms, 0614ms total)
T2270 001:798 JLINK_WriteReg(R11, 0x00000000)  returns 0x00 (0000ms, 0614ms total)
T2270 001:798 JLINK_WriteReg(R12, 0x00000000)  returns 0x00 (0000ms, 0614ms total)
T2270 001:798 JLINK_WriteReg(R13 (SP), 0x20001000)  returns 0x00 (0000ms, 0614ms total)
T2270 001:798 JLINK_WriteReg(R14, 0x20000001)  returns 0x00 (0000ms, 0614ms total)
T2270 001:798 JLINK_WriteReg(R15 (PC), 0x20000020)  returns 0x00 (0000ms, 0614ms total)
T2270 001:798 JLINK_WriteReg(XPSR, 0x01000000)  returns 0x00 (0000ms, 0614ms total)
T2270 001:798 JLINK_WriteReg(MSP, 0x20001000)  returns 0x00 (0000ms, 0614ms total)
T2270 001:798 JLINK_WriteReg(PSP, 0x20001000)  returns 0x00 (0000ms, 0614ms total)
T2270 001:798 JLINK_WriteReg(CFBP, 0x00000000)  returns 0x00 (0000ms, 0614ms total)
T2270 001:798 JLINK_SetBPEx(Addr = 0x20000000, Type = 0xFFFFFFF2)  returns 0x00000004 (0000ms, 0614ms total)
T2270 001:798 JLINK_Go() -- CPU_ReadMem(4 bytes @ 0xE0001000) (0004ms, 0618ms total)
T2270 001:802 JLINK_IsHalted() -- CPU_ReadMem(2 bytes @ 0x20000000)  returns TRUE (0006ms, 0624ms total)
T2270 001:808 JLINK_ReadReg(R15 (PC))  returns 0x20000000 (0000ms, 0618ms total)
T2270 001:808 JLINK_ClrBPEx(BPHandle = 0x00000004)  returns 0x00 (0000ms, 0618ms total)
T2270 001:808 JLINK_ReadReg(R0)  returns 0x00000001 (0000ms, 0618ms total)
T2270 001:808 JLINK_WriteReg(R0, 0x08004000)  returns 0x00 (0000ms, 0618ms total)
T2270 001:808 JLINK_WriteReg(R1, 0x00004000)  returns 0x00 (0000ms, 0618ms total)
T2270 001:808 JLINK_WriteReg(R2, 0x000000FF)  returns 0x00 (0000ms, 0618ms total)
T2270 001:808 JLINK_WriteReg(R3, 0x00000000)  returns 0x00 (0000ms, 0618ms total)
T2270 001:808 JLINK_WriteReg(R4, 0x00000000)  returns 0x00 (0000ms, 0618ms total)
T2270 001:808 JLINK_WriteReg(R5, 0x00000000)  returns 0x00 (0000ms, 0618ms total)
T2270 001:808 JLINK_WriteReg(R6, 0x00000000)  returns 0x00 (0000ms, 0618ms total)
T2270 001:808 JLINK_WriteReg(R7, 0x00000000)  returns 0x00 (0000ms, 0618ms total)
T2270 001:808 JLINK_WriteReg(R8, 0x00000000)  returns 0x00 (0000ms, 0618ms total)
T2270 001:808 JLINK_WriteReg(R9, 0x2000017C)  returns 0x00 (0000ms, 0618ms total)
T2270 001:808 JLINK_WriteReg(R10, 0x00000000)  returns 0x00 (0000ms, 0618ms total)
T2270 001:808 JLINK_WriteReg(R11, 0x00000000)  returns 0x00 (0000ms, 0618ms total)
T2270 001:808 JLINK_WriteReg(R12, 0x00000000)  returns 0x00 (0000ms, 0618ms total)
T2270 001:808 JLINK_WriteReg(R13 (SP), 0x20001000)  returns 0x00 (0000ms, 0618ms total)
T2270 001:808 JLINK_WriteReg(R14, 0x20000001)  returns 0x00 (0000ms, 0618ms total)
T2270 001:808 JLINK_WriteReg(R15 (PC), 0x200000BC)  returns 0x00 (0000ms, 0618ms total)
T2270 001:808 JLINK_WriteReg(XPSR, 0x01000000)  returns 0x00 (0000ms, 0618ms total)
T2270 001:808 JLINK_WriteReg(MSP, 0x20001000)  returns 0x00 (0000ms, 0618ms total)
T2270 001:808 JLINK_WriteReg(PSP, 0x20001000)  returns 0x00 (0000ms, 0618ms total)
T2270 001:808 JLINK_WriteReg(CFBP, 0x00000000)  returns 0x00 (0000ms, 0618ms total)
T2270 001:808 JLINK_SetBPEx(Addr = 0x20000000, Type = 0xFFFFFFF2)  returns 0x00000005 (0000ms, 0618ms total)
T2270 001:808 JLINK_Go() -- CPU_ReadMem(4 bytes @ 0xE0001000) (0003ms, 0621ms total)
T2270 001:811 JLINK_IsHalted()  returns FALSE (0000ms, 0621ms total)
T2270 001:816 JLINK_IsHalted()  returns FALSE (0000ms, 0621ms total)
T2270 001:818 JLINK_IsHalted()  returns FALSE (0000ms, 0621ms total)
T2270 001:820 JLINK_IsHalted()  returns FALSE (0000ms, 0621ms total)
T2270 001:822 JLINK_IsHalted()  returns FALSE (0000ms, 0621ms total)
T2270 001:830 JLINK_IsHalted()  returns FALSE (0000ms, 0621ms total)
T2270 001:832 JLINK_IsHalted()  returns FALSE (0000ms, 0621ms total)
T2270 001:834 JLINK_IsHalted()  returns FALSE (0000ms, 0621ms total)
T2270 001:836 JLINK_IsHalted()  returns FALSE (0000ms, 0621ms total)
T2270 001:838 JLINK_IsHalted()  returns FALSE (0000ms, 0621ms total)
T2270 001:856 JLINK_IsHalted()  returns FALSE (0001ms, 0622ms total)
T2270 001:859 JLINK_IsHalted()  returns FALSE (0000ms, 0621ms total)
T2270 001:861 JLINK_IsHalted()  returns FALSE (0000ms, 0621ms total)
T2270 001:863 JLINK_IsHalted()  returns FALSE (0000ms, 0621ms total)
T2270 001:865 JLINK_IsHalted()  returns FALSE (0000ms, 0621ms total)
T2270 001:867 JLINK_IsHalted()  returns FALSE (0000ms, 0621ms total)
T2270 001:887 JLINK_IsHalted()  returns FALSE (0000ms, 0621ms total)
T2270 001:889 JLINK_IsHalted()  returns FALSE (0000ms, 0621ms total)
T2270 001:892 JLINK_IsHalted()  returns FALSE (0000ms, 0621ms total)
T2270 001:894 JLINK_IsHalted()  returns FALSE (0000ms, 0621ms total)
T2270 001:896 JLINK_IsHalted()  returns FALSE (0000ms, 0621ms total)
T2270 001:902 JLINK_IsHalted()  returns FALSE (0000ms, 0621ms total)
T2270 001:904 JLINK_IsHalted()  returns FALSE (0000ms, 0621ms total)
T2270 001:906 JLINK_IsHalted()  returns FALSE (0001ms, 0622ms total)
T2270 001:909 JLINK_IsHalted()  returns FALSE (0000ms, 0621ms total)
T2270 001:911 JLINK_IsHalted()  returns FALSE (0000ms, 0621ms total)
T2270 001:919 JLINK_IsHalted()  returns FALSE (0000ms, 0621ms total)
T2270 001:921 JLINK_IsHalted()  returns FALSE (0000ms, 0621ms total)
T2270 001:923 JLINK_IsHalted()  returns FALSE (0001ms, 0622ms total)
T2270 001:926 JLINK_IsHalted()  returns FALSE (0000ms, 0621ms total)
T2270 001:942 JLINK_IsHalted()  returns FALSE (0000ms, 0621ms total)
T2270 001:944 JLINK_IsHalted()  returns FALSE (0000ms, 0621ms total)
T2270 001:946 JLINK_IsHalted()  returns FALSE (0000ms, 0621ms total)
T2270 001:948 JLINK_IsHalted()  returns FALSE (0000ms, 0621ms total)
T2270 001:956 JLINK_IsHalted()  returns FALSE (0001ms, 0622ms total)
T2270 001:959 JLINK_IsHalted()  returns FALSE (0000ms, 0621ms total)
T2270 001:961 JLINK_IsHalted()  returns FALSE (0000ms, 0621ms total)
T2270 001:963 JLINK_IsHalted()  returns FALSE (0000ms, 0621ms total)
T2270 001:965 JLINK_IsHalted()  returns FALSE (0000ms, 0621ms total)
T2270 001:979 JLINK_IsHalted()  returns FALSE (0000ms, 0621ms total)
T2270 001:981 JLINK_IsHalted()  returns FALSE (0001ms, 0622ms total)
T2270 001:984 JLINK_IsHalted()  returns FALSE (0000ms, 0621ms total)
T2270 001:986 JLINK_IsHalted()  returns FALSE (0000ms, 0621ms total)
T2270 001:988 JLINK_IsHalted()  returns FALSE (0000ms, 0621ms total)
T2270 001:996 JLINK_IsHalted()  returns FALSE (0000ms, 0621ms total)
T2270 001:998 JLINK_IsHalted()  returns FALSE (0000ms, 0621ms total)
T2270 002:000 JLINK_IsHalted()  returns FALSE (0000ms, 0621ms total)
T2270 002:002 JLINK_IsHalted()  returns FALSE (0000ms, 0621ms total)
T2270 002:004 JLINK_IsHalted()  returns FALSE (0000ms, 0621ms total)
T2270 002:006 JLINK_IsHalted()  returns FALSE (0001ms, 0622ms total)
T2270 002:013 JLINK_IsHalted()  returns FALSE (0000ms, 0621ms total)
T2270 002:015 JLINK_IsHalted()  returns FALSE (0000ms, 0621ms total)
T2270 002:019 JLINK_IsHalted()  returns FALSE (0000ms, 0621ms total)
T2270 002:021 JLINK_IsHalted()  returns FALSE (0000ms, 0621ms total)
T2270 002:028 JLINK_IsHalted()  returns FALSE (0000ms, 0621ms total)
T2270 002:030 JLINK_IsHalted()  returns FALSE (0000ms, 0621ms total)
T2270 002:033 JLINK_IsHalted()  returns FALSE (0000ms, 0621ms total)
T2270 002:035 JLINK_IsHalted()  returns FALSE (0000ms, 0621ms total)
T2270 002:045 JLINK_IsHalted()  returns FALSE (0001ms, 0622ms total)
T2270 002:048 JLINK_IsHalted()  returns FALSE (0000ms, 0621ms total)
T2270 002:051 JLINK_IsHalted()  returns FALSE (0000ms, 0621ms total)
T2270 002:059 JLINK_IsHalted()  returns FALSE (0000ms, 0621ms total)
T2270 002:061 JLINK_IsHalted()  returns FALSE (0000ms, 0621ms total)
T2270 002:063 JLINK_IsHalted()  returns FALSE (0000ms, 0621ms total)
T2270 002:065 JLINK_IsHalted()  returns FALSE (0000ms, 0621ms total)
T2270 002:067 JLINK_IsHalted()  returns FALSE (0001ms, 0622ms total)
T2270 002:069 JLINK_IsHalted()  returns FALSE (0001ms, 0622ms total)
T2270 002:072 JLINK_IsHalted()  returns FALSE (0000ms, 0621ms total)
T2270 002:074 JLINK_IsHalted()  returns FALSE (0001ms, 0622ms total)
T2270 002:082 JLINK_IsHalted()  returns FALSE (0001ms, 0622ms total)
T2270 002:085 JLINK_IsHalted()  returns FALSE (0000ms, 0621ms total)
T2270 002:087 JLINK_IsHalted()  returns FALSE (0000ms, 0621ms total)
T2270 002:089 JLINK_IsHalted()  returns FALSE (0000ms, 0621ms total)
T2270 002:099 JLINK_IsHalted()  returns FALSE (0000ms, 0621ms total)
T2270 002:113 JLINK_IsHalted()  returns FALSE (0000ms, 0621ms total)
T2270 002:121 JLINK_IsHalted()  returns FALSE (0000ms, 0621ms total)
T2270 002:123 JLINK_IsHalted()  returns FALSE (0001ms, 0622ms total)
T2270 002:127 JLINK_IsHalted()  returns FALSE (0000ms, 0621ms total)
T2270 002:129 JLINK_IsHalted()  returns FALSE (0000ms, 0621ms total)
T2270 002:131 JLINK_IsHalted()  returns FALSE (0000ms, 0621ms total)
T2270 002:133 JLINK_IsHalted()  returns FALSE (0000ms, 0621ms total)
T2270 002:135 JLINK_IsHalted()  returns FALSE (0000ms, 0621ms total)
T2270 002:149 JLINK_IsHalted() -- CPU_ReadMem(2 bytes @ 0x20000000)  returns TRUE (0005ms, 0626ms total)
T2270 002:154 JLINK_ReadReg(R15 (PC))  returns 0x20000000 (0000ms, 0621ms total)
T2270 002:154 JLINK_ClrBPEx(BPHandle = 0x00000005)  returns 0x00 (0000ms, 0621ms total)
T2270 002:154 JLINK_ReadReg(R0)  returns 0x00000000 (0000ms, 0621ms total)
T2270 002:163 JLINK_WriteReg(R0, 0x00000001)  returns 0x00 (0000ms, 0621ms total)
T2270 002:163 JLINK_WriteReg(R1, 0x00004000)  returns 0x00 (0000ms, 0621ms total)
T2270 002:163 JLINK_WriteReg(R2, 0x000000FF)  returns 0x00 (0000ms, 0621ms total)
T2270 002:163 JLINK_WriteReg(R3, 0x00000000)  returns 0x00 (0000ms, 0621ms total)
T2270 002:163 JLINK_WriteReg(R4, 0x00000000)  returns 0x00 (0000ms, 0621ms total)
T2270 002:163 JLINK_WriteReg(R5, 0x00000000)  returns 0x00 (0000ms, 0621ms total)
T2270 002:163 JLINK_WriteReg(R6, 0x00000000)  returns 0x00 (0000ms, 0621ms total)
T2270 002:163 JLINK_WriteReg(R7, 0x00000000)  returns 0x00 (0000ms, 0621ms total)
T2270 002:163 JLINK_WriteReg(R8, 0x00000000)  returns 0x00 (0000ms, 0621ms total)
T2270 002:163 JLINK_WriteReg(R9, 0x2000017C)  returns 0x00 (0000ms, 0621ms total)
T2270 002:163 JLINK_WriteReg(R10, 0x00000000)  returns 0x00 (0000ms, 0621ms total)
T2270 002:163 JLINK_WriteReg(R11, 0x00000000)  returns 0x00 (0000ms, 0621ms total)
T2270 002:163 JLINK_WriteReg(R12, 0x00000000)  returns 0x00 (0000ms, 0621ms total)
T2270 002:163 JLINK_WriteReg(R13 (SP), 0x20001000)  returns 0x00 (0000ms, 0621ms total)
T2270 002:163 JLINK_WriteReg(R14, 0x20000001)  returns 0x00 (0000ms, 0621ms total)
T2270 002:163 JLINK_WriteReg(R15 (PC), 0x20000082)  returns 0x00 (0000ms, 0621ms total)
T2270 002:163 JLINK_WriteReg(XPSR, 0x01000000)  returns 0x00 (0000ms, 0621ms total)
T2270 002:163 JLINK_WriteReg(MSP, 0x20001000)  returns 0x00 (0000ms, 0621ms total)
T2270 002:163 JLINK_WriteReg(PSP, 0x20001000)  returns 0x00 (0000ms, 0621ms total)
T2270 002:163 JLINK_WriteReg(CFBP, 0x00000000)  returns 0x00 (0000ms, 0621ms total)
T2270 002:163 JLINK_SetBPEx(Addr = 0x20000000, Type = 0xFFFFFFF2)  returns 0x00000006 (0000ms, 0621ms total)
T2270 002:163 JLINK_Go() -- CPU_ReadMem(4 bytes @ 0xE0001000) (0003ms, 0624ms total)
T2270 002:166 JLINK_IsHalted() -- CPU_ReadMem(2 bytes @ 0x20000000)  returns TRUE (0007ms, 0631ms total)
T2270 002:173 JLINK_ReadReg(R15 (PC))  returns 0x20000000 (0000ms, 0624ms total)
T2270 002:173 JLINK_ClrBPEx(BPHandle = 0x00000006)  returns 0x00 (0000ms, 0624ms total)
T2270 002:173 JLINK_ReadReg(R0)  returns 0x00000000 (0000ms, 0624ms total)
T2270 002:296 JLINK_WriteMem(0x20000000, 0x0180 Bytes, ...) - Data: 00 BE 0A E0 0D 78 2D 06 68 40 08 24 40 00 00 D3 ... -- CPU_WriteMem(384 bytes @ 0x20000000)  returns 0x180 (0007ms, 0631ms total)
T2270 002:303 JLINK_WriteReg(R0, 0x08000000)  returns 0x00 (0000ms, 0631ms total)
T2270 002:303 JLINK_WriteReg(R1, 0x0A037A00)  returns 0x00 (0000ms, 0631ms total)
T2270 002:303 JLINK_WriteReg(R2, 0x00000002)  returns 0x00 (0000ms, 0631ms total)
T2270 002:303 JLINK_WriteReg(R3, 0x00000000)  returns 0x00 (0000ms, 0631ms total)
T2270 002:303 JLINK_WriteReg(R4, 0x00000000)  returns 0x00 (0000ms, 0631ms total)
T2270 002:303 JLINK_WriteReg(R5, 0x00000000)  returns 0x00 (0000ms, 0631ms total)
T2270 002:303 JLINK_WriteReg(R6, 0x00000000)  returns 0x00 (0000ms, 0631ms total)
T2270 002:303 JLINK_WriteReg(R7, 0x00000000)  returns 0x00 (0000ms, 0631ms total)
T2270 002:303 JLINK_WriteReg(R8, 0x00000000)  returns 0x00 (0000ms, 0631ms total)
T2270 002:303 JLINK_WriteReg(R9, 0x2000017C)  returns 0x00 (0000ms, 0631ms total)
T2270 002:303 JLINK_WriteReg(R10, 0x00000000)  returns 0x00 (0000ms, 0631ms total)
T2270 002:303 JLINK_WriteReg(R11, 0x00000000)  returns 0x00 (0000ms, 0631ms total)
T2270 002:303 JLINK_WriteReg(R12, 0x00000000)  returns 0x00 (0000ms, 0631ms total)
T2270 002:303 JLINK_WriteReg(R13 (SP), 0x20001000)  returns 0x00 (0000ms, 0631ms total)
T2270 002:303 JLINK_WriteReg(R14, 0x20000001)  returns 0x00 (0000ms, 0631ms total)
T2270 002:303 JLINK_WriteReg(R15 (PC), 0x20000054)  returns 0x00 (0000ms, 0631ms total)
T2270 002:303 JLINK_WriteReg(XPSR, 0x01000000)  returns 0x00 (0000ms, 0631ms total)
T2270 002:303 JLINK_WriteReg(MSP, 0x20001000)  returns 0x00 (0000ms, 0631ms total)
T2270 002:303 JLINK_WriteReg(PSP, 0x20001000)  returns 0x00 (0000ms, 0631ms total)
T2270 002:303 JLINK_WriteReg(CFBP, 0x00000000)  returns 0x00 (0000ms, 0631ms total)
T2270 002:303 JLINK_SetBPEx(Addr = 0x20000000, Type = 0xFFFFFFF2) -- CPU_ReadMem(2 bytes @ 0x20000000)  returns 0x00000007 (0001ms, 0632ms total)
T2270 002:304 JLINK_Go() -- CPU_WriteMem(2 bytes @ 0x20000000) -- CPU_ReadMem(4 bytes @ 0xE0001000) (0004ms, 0636ms total)
T2270 002:308 JLINK_IsHalted() -- CPU_ReadMem(2 bytes @ 0x20000000)  returns TRUE (0006ms, 0642ms total)
T2270 002:314 JLINK_ReadReg(R15 (PC))  returns 0x20000000 (0000ms, 0636ms total)
T2270 002:314 JLINK_ClrBPEx(BPHandle = 0x00000007)  returns 0x00 (0000ms, 0636ms total)
T2270 002:314 JLINK_ReadReg(R0)  returns 0x00000000 (0000ms, 0636ms total)
T2270 002:319 JLINK_WriteMem(0x20000180, 0x0400 Bytes, ...) - Data: 60 09 00 20 B5 04 00 08 89 02 00 08 8B 02 00 08 ... -- CPU_WriteMem(1024 bytes @ 0x20000180)  returns 0x400 (0015ms, 0651ms total)
T2270 002:334 JLINK_WriteReg(R0, 0x08000000)  returns 0x00 (0000ms, 0651ms total)
T2270 002:334 JLINK_WriteReg(R1, 0x00000400)  returns 0x00 (0000ms, 0651ms total)
T2270 002:334 JLINK_WriteReg(R2, 0x20000180)  returns 0x00 (0000ms, 0651ms total)
T2270 002:334 JLINK_WriteReg(R3, 0x00000000)  returns 0x00 (0000ms, 0651ms total)
T2270 002:334 JLINK_WriteReg(R4, 0x00000000)  returns 0x00 (0000ms, 0651ms total)
T2270 002:335 JLINK_WriteReg(R5, 0x00000000)  returns 0x00 (0000ms, 0652ms total)
T2270 002:335 JLINK_WriteReg(R6, 0x00000000)  returns 0x00 (0000ms, 0652ms total)
T2270 002:335 JLINK_WriteReg(R7, 0x00000000)  returns 0x00 (0000ms, 0652ms total)
T2270 002:335 JLINK_WriteReg(R8, 0x00000000)  returns 0x00 (0000ms, 0652ms total)
T2270 002:335 JLINK_WriteReg(R9, 0x2000017C)  returns 0x00 (0000ms, 0652ms total)
T2270 002:335 JLINK_WriteReg(R10, 0x00000000)  returns 0x00 (0000ms, 0652ms total)
T2270 002:335 JLINK_WriteReg(R11, 0x00000000)  returns 0x00 (0000ms, 0652ms total)
T2270 002:335 JLINK_WriteReg(R12, 0x00000000)  returns 0x00 (0000ms, 0652ms total)
T2270 002:335 JLINK_WriteReg(R13 (SP), 0x20001000)  returns 0x00 (0000ms, 0652ms total)
T2270 002:335 JLINK_WriteReg(R14, 0x20000001)  returns 0x00 (0000ms, 0652ms total)
T2270 002:335 JLINK_WriteReg(R15 (PC), 0x20000108)  returns 0x00 (0000ms, 0652ms total)
T2270 002:335 JLINK_WriteReg(XPSR, 0x01000000)  returns 0x00 (0000ms, 0652ms total)
T2270 002:335 JLINK_WriteReg(MSP, 0x20001000)  returns 0x00 (0000ms, 0652ms total)
T2270 002:335 JLINK_WriteReg(PSP, 0x20001000)  returns 0x00 (0000ms, 0652ms total)
T2270 002:335 JLINK_WriteReg(CFBP, 0x00000000)  returns 0x00 (0000ms, 0652ms total)
T2270 002:335 JLINK_SetBPEx(Addr = 0x20000000, Type = 0xFFFFFFF2)  returns 0x00000008 (0000ms, 0652ms total)
T2270 002:335 JLINK_Go() -- CPU_ReadMem(4 bytes @ 0xE0001000) (0003ms, 0655ms total)
T2270 002:338 JLINK_IsHalted()  returns FALSE (0001ms, 0656ms total)
T2270 002:393 JLINK_IsHalted() -- CPU_ReadMem(2 bytes @ 0x20000000)  returns TRUE (0005ms, 0660ms total)
T2270 002:398 JLINK_ReadReg(R15 (PC))  returns 0x20000000 (0000ms, 0655ms total)
T2270 002:398 JLINK_ClrBPEx(BPHandle = 0x00000008)  returns 0x00 (0000ms, 0655ms total)
T2270 002:398 JLINK_ReadReg(R0)  returns 0x00000000 (0000ms, 0655ms total)
T2270 002:408 JLINK_WriteMem(0x20000180, 0x0400 Bytes, ...) - Data: 33 E0 2A 4D 28 4E 35 60 2F E0 1F 4D 2D 1D 2D 68 ... -- CPU_WriteMem(1024 bytes @ 0x20000180)  returns 0x400 (0016ms, 0671ms total)
T2270 002:424 JLINK_WriteReg(R0, 0x08000400)  returns 0x00 (0000ms, 0671ms total)
T2270 002:424 JLINK_WriteReg(R1, 0x00000400)  returns 0x00 (0000ms, 0671ms total)
T2270 002:424 JLINK_WriteReg(R2, 0x20000180)  returns 0x00 (0000ms, 0671ms total)
T2270 002:424 JLINK_WriteReg(R3, 0x00000000)  returns 0x00 (0000ms, 0671ms total)
T2270 002:424 JLINK_WriteReg(R4, 0x00000000)  returns 0x00 (0000ms, 0671ms total)
T2270 002:424 JLINK_WriteReg(R5, 0x00000000)  returns 0x00 (0000ms, 0671ms total)
T2270 002:424 JLINK_WriteReg(R6, 0x00000000)  returns 0x00 (0000ms, 0671ms total)
T2270 002:424 JLINK_WriteReg(R7, 0x00000000)  returns 0x00 (0000ms, 0671ms total)
T2270 002:424 JLINK_WriteReg(R8, 0x00000000)  returns 0x00 (0000ms, 0671ms total)
T2270 002:424 JLINK_WriteReg(R9, 0x2000017C)  returns 0x00 (0000ms, 0671ms total)
T2270 002:424 JLINK_WriteReg(R10, 0x00000000)  returns 0x00 (0000ms, 0671ms total)
T2270 002:424 JLINK_WriteReg(R11, 0x00000000)  returns 0x00 (0000ms, 0671ms total)
T2270 002:424 JLINK_WriteReg(R12, 0x00000000)  returns 0x00 (0000ms, 0671ms total)
T2270 002:424 JLINK_WriteReg(R13 (SP), 0x20001000)  returns 0x00 (0001ms, 0672ms total)
T2270 002:425 JLINK_WriteReg(R14, 0x20000001)  returns 0x00 (0000ms, 0672ms total)
T2270 002:425 JLINK_WriteReg(R15 (PC), 0x20000108)  returns 0x00 (0000ms, 0672ms total)
T2270 002:425 JLINK_WriteReg(XPSR, 0x01000000)  returns 0x00 (0000ms, 0672ms total)
T2270 002:425 JLINK_WriteReg(MSP, 0x20001000)  returns 0x00 (0000ms, 0672ms total)
T2270 002:425 JLINK_WriteReg(PSP, 0x20001000)  returns 0x00 (0000ms, 0672ms total)
T2270 002:425 JLINK_WriteReg(CFBP, 0x00000000)  returns 0x00 (0000ms, 0672ms total)
T2270 002:425 JLINK_SetBPEx(Addr = 0x20000000, Type = 0xFFFFFFF2)  returns 0x00000009 (0000ms, 0672ms total)
T2270 002:425 JLINK_Go() -- CPU_ReadMem(4 bytes @ 0xE0001000) (0002ms, 0674ms total)
T2270 002:427 JLINK_IsHalted()  returns FALSE (0001ms, 0675ms total)
T2270 002:441 JLINK_IsHalted() -- CPU_ReadMem(2 bytes @ 0x20000000)  returns TRUE (0005ms, 0679ms total)
T2270 002:446 JLINK_ReadReg(R15 (PC))  returns 0x20000000 (0000ms, 0674ms total)
T2270 002:446 JLINK_ClrBPEx(BPHandle = 0x00000009)  returns 0x00 (0000ms, 0674ms total)
T2270 002:446 JLINK_ReadReg(R0)  returns 0x00000000 (0000ms, 0674ms total)
T2270 002:471 JLINK_WriteMem(0x20000180, 0x0400 Bytes, ...) - Data: 75 4A 1C 32 12 68 0A 43 73 4B 1C 33 1A 60 72 4A ... -- CPU_WriteMem(1024 bytes @ 0x20000180)  returns 0x400 (0017ms, 0691ms total)
T2270 002:488 JLINK_WriteReg(R0, 0x08000800)  returns 0x00 (0000ms, 0691ms total)
T2270 002:488 JLINK_WriteReg(R1, 0x00000400)  returns 0x00 (0000ms, 0691ms total)
T2270 002:488 JLINK_WriteReg(R2, 0x20000180)  returns 0x00 (0000ms, 0691ms total)
T2270 002:488 JLINK_WriteReg(R3, 0x00000000)  returns 0x00 (0000ms, 0691ms total)
T2270 002:488 JLINK_WriteReg(R4, 0x00000000)  returns 0x00 (0000ms, 0691ms total)
T2270 002:488 JLINK_WriteReg(R5, 0x00000000)  returns 0x00 (0000ms, 0691ms total)
T2270 002:488 JLINK_WriteReg(R6, 0x00000000)  returns 0x00 (0000ms, 0691ms total)
T2270 002:488 JLINK_WriteReg(R7, 0x00000000)  returns 0x00 (0000ms, 0691ms total)
T2270 002:488 JLINK_WriteReg(R8, 0x00000000)  returns 0x00 (0000ms, 0691ms total)
T2270 002:488 JLINK_WriteReg(R9, 0x2000017C)  returns 0x00 (0000ms, 0691ms total)
T2270 002:488 JLINK_WriteReg(R10, 0x00000000)  returns 0x00 (0000ms, 0691ms total)
T2270 002:488 JLINK_WriteReg(R11, 0x00000000)  returns 0x00 (0000ms, 0691ms total)
T2270 002:488 JLINK_WriteReg(R12, 0x00000000)  returns 0x00 (0000ms, 0691ms total)
T2270 002:488 JLINK_WriteReg(R13 (SP), 0x20001000)  returns 0x00 (0000ms, 0691ms total)
T2270 002:488 JLINK_WriteReg(R14, 0x20000001)  returns 0x00 (0000ms, 0691ms total)
T2270 002:488 JLINK_WriteReg(R15 (PC), 0x20000108)  returns 0x00 (0000ms, 0691ms total)
T2270 002:488 JLINK_WriteReg(XPSR, 0x01000000)  returns 0x00 (0000ms, 0691ms total)
T2270 002:488 JLINK_WriteReg(MSP, 0x20001000)  returns 0x00 (0000ms, 0691ms total)
T2270 002:488 JLINK_WriteReg(PSP, 0x20001000)  returns 0x00 (0000ms, 0691ms total)
T2270 002:488 JLINK_WriteReg(CFBP, 0x00000000)  returns 0x00 (0000ms, 0691ms total)
T2270 002:488 JLINK_SetBPEx(Addr = 0x20000000, Type = 0xFFFFFFF2)  returns 0x0000000A (0000ms, 0691ms total)
T2270 002:488 JLINK_Go() -- CPU_ReadMem(4 bytes @ 0xE0001000) (0003ms, 0694ms total)
T2270 002:491 JLINK_IsHalted()  returns FALSE (0001ms, 0695ms total)
T2270 002:533 JLINK_IsHalted() -- CPU_ReadMem(2 bytes @ 0x20000000)  returns TRUE (0005ms, 0699ms total)
T2270 002:538 JLINK_ReadReg(R15 (PC))  returns 0x20000000 (0000ms, 0694ms total)
T2270 002:538 JLINK_ClrBPEx(BPHandle = 0x0000000A)  returns 0x00 (0000ms, 0694ms total)
T2270 002:538 JLINK_ReadReg(R0)  returns 0x00000000 (0000ms, 0694ms total)
T2270 002:546 JLINK_WriteMem(0x20000180, 0x0400 Bytes, ...) - Data: 00 E0 00 20 70 47 10 B5 02 46 0B 46 00 20 4F F6 ... -- CPU_WriteMem(1024 bytes @ 0x20000180)  returns 0x400 (0015ms, 0709ms total)
T2270 002:561 JLINK_WriteReg(R0, 0x08000C00)  returns 0x00 (0000ms, 0709ms total)
T2270 002:561 JLINK_WriteReg(R1, 0x00000400)  returns 0x00 (0000ms, 0709ms total)
T2270 002:561 JLINK_WriteReg(R2, 0x20000180)  returns 0x00 (0000ms, 0709ms total)
T2270 002:561 JLINK_WriteReg(R3, 0x00000000)  returns 0x00 (0000ms, 0709ms total)
T2270 002:561 JLINK_WriteReg(R4, 0x00000000)  returns 0x00 (0000ms, 0709ms total)
T2270 002:561 JLINK_WriteReg(R5, 0x00000000)  returns 0x00 (0000ms, 0709ms total)
T2270 002:561 JLINK_WriteReg(R6, 0x00000000)  returns 0x00 (0000ms, 0709ms total)
T2270 002:561 JLINK_WriteReg(R7, 0x00000000)  returns 0x00 (0000ms, 0709ms total)
T2270 002:561 JLINK_WriteReg(R8, 0x00000000)  returns 0x00 (0000ms, 0709ms total)
T2270 002:561 JLINK_WriteReg(R9, 0x2000017C)  returns 0x00 (0000ms, 0709ms total)
T2270 002:561 JLINK_WriteReg(R10, 0x00000000)  returns 0x00 (0000ms, 0709ms total)
T2270 002:561 JLINK_WriteReg(R11, 0x00000000)  returns 0x00 (0000ms, 0709ms total)
T2270 002:561 JLINK_WriteReg(R12, 0x00000000)  returns 0x00 (0000ms, 0709ms total)
T2270 002:561 JLINK_WriteReg(R13 (SP), 0x20001000)  returns 0x00 (0000ms, 0709ms total)
T2270 002:561 JLINK_WriteReg(R14, 0x20000001)  returns 0x00 (0000ms, 0709ms total)
T2270 002:561 JLINK_WriteReg(R15 (PC), 0x20000108)  returns 0x00 (0000ms, 0709ms total)
T2270 002:561 JLINK_WriteReg(XPSR, 0x01000000)  returns 0x00 (0000ms, 0709ms total)
T2270 002:561 JLINK_WriteReg(MSP, 0x20001000)  returns 0x00 (0000ms, 0709ms total)
T2270 002:561 JLINK_WriteReg(PSP, 0x20001000)  returns 0x00 (0000ms, 0709ms total)
T2270 002:561 JLINK_WriteReg(CFBP, 0x00000000)  returns 0x00 (0000ms, 0709ms total)
T2270 002:561 JLINK_SetBPEx(Addr = 0x20000000, Type = 0xFFFFFFF2)  returns 0x0000000B (0000ms, 0709ms total)
T2270 002:561 JLINK_Go() -- CPU_ReadMem(4 bytes @ 0xE0001000) (0003ms, 0712ms total)
T2270 002:564 JLINK_IsHalted()  returns FALSE (0001ms, 0713ms total)
T2270 002:569 JLINK_IsHalted() -- CPU_ReadMem(2 bytes @ 0x20000000)  returns TRUE (0005ms, 0717ms total)
T2270 002:574 JLINK_ReadReg(R15 (PC))  returns 0x20000000 (0000ms, 0712ms total)
T2270 002:574 JLINK_ClrBPEx(BPHandle = 0x0000000B)  returns 0x00 (0000ms, 0712ms total)
T2270 002:574 JLINK_ReadReg(R0)  returns 0x00000000 (0000ms, 0712ms total)
T2270 002:582 JLINK_WriteMem(0x20000180, 0x0400 Bytes, ...) - Data: 04 20 00 F0 6E FB 00 21 04 20 00 F0 6A FB 5E E0 ... -- CPU_WriteMem(1024 bytes @ 0x20000180)  returns 0x400 (0016ms, 0728ms total)
T2270 002:598 JLINK_WriteReg(R0, 0x08001000)  returns 0x00 (0000ms, 0728ms total)
T2270 002:598 JLINK_WriteReg(R1, 0x00000400)  returns 0x00 (0000ms, 0728ms total)
T2270 002:598 JLINK_WriteReg(R2, 0x20000180)  returns 0x00 (0000ms, 0728ms total)
T2270 002:598 JLINK_WriteReg(R3, 0x00000000)  returns 0x00 (0000ms, 0728ms total)
T2270 002:598 JLINK_WriteReg(R4, 0x00000000)  returns 0x00 (0000ms, 0728ms total)
T2270 002:598 JLINK_WriteReg(R5, 0x00000000)  returns 0x00 (0000ms, 0728ms total)
T2270 002:598 JLINK_WriteReg(R6, 0x00000000)  returns 0x00 (0000ms, 0728ms total)
T2270 002:598 JLINK_WriteReg(R7, 0x00000000)  returns 0x00 (0000ms, 0728ms total)
T2270 002:598 JLINK_WriteReg(R8, 0x00000000)  returns 0x00 (0000ms, 0728ms total)
T2270 002:598 JLINK_WriteReg(R9, 0x2000017C)  returns 0x00 (0000ms, 0728ms total)
T2270 002:598 JLINK_WriteReg(R10, 0x00000000)  returns 0x00 (0000ms, 0728ms total)
T2270 002:598 JLINK_WriteReg(R11, 0x00000000)  returns 0x00 (0000ms, 0728ms total)
T2270 002:598 JLINK_WriteReg(R12, 0x00000000)  returns 0x00 (0000ms, 0728ms total)
T2270 002:598 JLINK_WriteReg(R13 (SP), 0x20001000)  returns 0x00 (0000ms, 0728ms total)
T2270 002:598 JLINK_WriteReg(R14, 0x20000001)  returns 0x00 (0000ms, 0728ms total)
T2270 002:598 JLINK_WriteReg(R15 (PC), 0x20000108)  returns 0x00 (0000ms, 0728ms total)
T2270 002:598 JLINK_WriteReg(XPSR, 0x01000000)  returns 0x00 (0000ms, 0728ms total)
T2270 002:598 JLINK_WriteReg(MSP, 0x20001000)  returns 0x00 (0000ms, 0728ms total)
T2270 002:598 JLINK_WriteReg(PSP, 0x20001000)  returns 0x00 (0000ms, 0728ms total)
T2270 002:598 JLINK_WriteReg(CFBP, 0x00000000)  returns 0x00 (0000ms, 0728ms total)
T2270 002:598 JLINK_SetBPEx(Addr = 0x20000000, Type = 0xFFFFFFF2)  returns 0x0000000C (0000ms, 0728ms total)
T2270 002:598 JLINK_Go() -- CPU_ReadMem(4 bytes @ 0xE0001000) (0003ms, 0731ms total)
T2270 002:601 JLINK_IsHalted()  returns FALSE (0001ms, 0732ms total)
T2270 002:613 JLINK_IsHalted() -- CPU_ReadMem(2 bytes @ 0x20000000)  returns TRUE (0005ms, 0736ms total)
T2270 002:618 JLINK_ReadReg(R15 (PC))  returns 0x20000000 (0000ms, 0731ms total)
T2270 002:618 JLINK_ClrBPEx(BPHandle = 0x0000000C)  returns 0x00 (0000ms, 0731ms total)
T2270 002:618 JLINK_ReadReg(R0)  returns 0x00000000 (0000ms, 0731ms total)
T2270 002:630 JLINK_WriteMem(0x20000180, 0x0400 Bytes, ...) - Data: 01 03 18 43 8E 4B 08 33 18 60 70 47 01 46 00 20 ... -- CPU_WriteMem(1024 bytes @ 0x20000180)  returns 0x400 (0015ms, 0746ms total)
T2270 002:645 JLINK_WriteReg(R0, 0x08001400)  returns 0x00 (0000ms, 0746ms total)
T2270 002:645 JLINK_WriteReg(R1, 0x00000400)  returns 0x00 (0000ms, 0746ms total)
T2270 002:645 JLINK_WriteReg(R2, 0x20000180)  returns 0x00 (0000ms, 0746ms total)
T2270 002:645 JLINK_WriteReg(R3, 0x00000000)  returns 0x00 (0000ms, 0746ms total)
T2270 002:645 JLINK_WriteReg(R4, 0x00000000)  returns 0x00 (0000ms, 0746ms total)
T2270 002:645 JLINK_WriteReg(R5, 0x00000000)  returns 0x00 (0000ms, 0746ms total)
T2270 002:645 JLINK_WriteReg(R6, 0x00000000)  returns 0x00 (0000ms, 0746ms total)
T2270 002:645 JLINK_WriteReg(R7, 0x00000000)  returns 0x00 (0000ms, 0746ms total)
T2270 002:645 JLINK_WriteReg(R8, 0x00000000)  returns 0x00 (0000ms, 0746ms total)
T2270 002:645 JLINK_WriteReg(R9, 0x2000017C)  returns 0x00 (0001ms, 0747ms total)
T2270 002:646 JLINK_WriteReg(R10, 0x00000000)  returns 0x00 (0000ms, 0747ms total)
T2270 002:646 JLINK_WriteReg(R11, 0x00000000)  returns 0x00 (0000ms, 0747ms total)
T2270 002:646 JLINK_WriteReg(R12, 0x00000000)  returns 0x00 (0000ms, 0747ms total)
T2270 002:646 JLINK_WriteReg(R13 (SP), 0x20001000)  returns 0x00 (0000ms, 0747ms total)
T2270 002:646 JLINK_WriteReg(R14, 0x20000001)  returns 0x00 (0000ms, 0747ms total)
T2270 002:646 JLINK_WriteReg(R15 (PC), 0x20000108)  returns 0x00 (0000ms, 0747ms total)
T2270 002:646 JLINK_WriteReg(XPSR, 0x01000000)  returns 0x00 (0000ms, 0747ms total)
T2270 002:646 JLINK_WriteReg(MSP, 0x20001000)  returns 0x00 (0000ms, 0747ms total)
T2270 002:646 JLINK_WriteReg(PSP, 0x20001000)  returns 0x00 (0000ms, 0747ms total)
T2270 002:646 JLINK_WriteReg(CFBP, 0x00000000)  returns 0x00 (0000ms, 0747ms total)
T2270 002:646 JLINK_SetBPEx(Addr = 0x20000000, Type = 0xFFFFFFF2)  returns 0x0000000D (0000ms, 0747ms total)
T2270 002:646 JLINK_Go() -- CPU_ReadMem(4 bytes @ 0xE0001000) (0003ms, 0750ms total)
T2270 002:649 JLINK_IsHalted()  returns FALSE (0000ms, 0750ms total)
T2270 002:669 JLINK_IsHalted() -- CPU_ReadMem(2 bytes @ 0x20000000)  returns TRUE (0005ms, 0755ms total)
T2270 002:674 JLINK_ReadReg(R15 (PC))  returns 0x20000000 (0000ms, 0750ms total)
T2270 002:674 JLINK_ClrBPEx(BPHandle = 0x0000000D)  returns 0x00 (0000ms, 0750ms total)
T2270 002:674 JLINK_ReadReg(R0)  returns 0x00000000 (0000ms, 0750ms total)
T2270 002:686 JLINK_WriteMem(0x20000180, 0x0400 Bytes, ...) - Data: 1A 60 06 E0 2A 4A 2C 32 12 68 82 43 28 4B 2C 33 ... -- CPU_WriteMem(1024 bytes @ 0x20000180)  returns 0x400 (0015ms, 0765ms total)
T2270 002:701 JLINK_WriteReg(R0, 0x08001800)  returns 0x00 (0000ms, 0765ms total)
T2270 002:701 JLINK_WriteReg(R1, 0x00000400)  returns 0x00 (0000ms, 0765ms total)
T2270 002:701 JLINK_WriteReg(R2, 0x20000180)  returns 0x00 (0000ms, 0765ms total)
T2270 002:701 JLINK_WriteReg(R3, 0x00000000)  returns 0x00 (0000ms, 0765ms total)
T2270 002:701 JLINK_WriteReg(R4, 0x00000000)  returns 0x00 (0000ms, 0765ms total)
T2270 002:701 JLINK_WriteReg(R5, 0x00000000)  returns 0x00 (0000ms, 0765ms total)
T2270 002:701 JLINK_WriteReg(R6, 0x00000000)  returns 0x00 (0000ms, 0765ms total)
T2270 002:701 JLINK_WriteReg(R7, 0x00000000)  returns 0x00 (0000ms, 0765ms total)
T2270 002:701 JLINK_WriteReg(R8, 0x00000000)  returns 0x00 (0000ms, 0765ms total)
T2270 002:701 JLINK_WriteReg(R9, 0x2000017C)  returns 0x00 (0000ms, 0765ms total)
T2270 002:701 JLINK_WriteReg(R10, 0x00000000)  returns 0x00 (0000ms, 0765ms total)
T2270 002:701 JLINK_WriteReg(R11, 0x00000000)  returns 0x00 (0000ms, 0765ms total)
T2270 002:701 JLINK_WriteReg(R12, 0x00000000)  returns 0x00 (0000ms, 0765ms total)
T2270 002:701 JLINK_WriteReg(R13 (SP), 0x20001000)  returns 0x00 (0000ms, 0765ms total)
T2270 002:701 JLINK_WriteReg(R14, 0x20000001)  returns 0x00 (0000ms, 0765ms total)
T2270 002:701 JLINK_WriteReg(R15 (PC), 0x20000108)  returns 0x00 (0000ms, 0765ms total)
T2270 002:701 JLINK_WriteReg(XPSR, 0x01000000)  returns 0x00 (0000ms, 0765ms total)
T2270 002:701 JLINK_WriteReg(MSP, 0x20001000)  returns 0x00 (0000ms, 0765ms total)
T2270 002:701 JLINK_WriteReg(PSP, 0x20001000)  returns 0x00 (0000ms, 0765ms total)
T2270 002:701 JLINK_WriteReg(CFBP, 0x00000000)  returns 0x00 (0000ms, 0765ms total)
T2270 002:701 JLINK_SetBPEx(Addr = 0x20000000, Type = 0xFFFFFFF2)  returns 0x0000000E (0000ms, 0765ms total)
T2270 002:701 JLINK_Go() -- CPU_ReadMem(4 bytes @ 0xE0001000) (0003ms, 0768ms total)
T2270 002:704 JLINK_IsHalted()  returns FALSE (0001ms, 0769ms total)
T2270 002:714 JLINK_IsHalted() -- CPU_ReadMem(2 bytes @ 0x20000000)  returns TRUE (0005ms, 0773ms total)
T2270 002:719 JLINK_ReadReg(R15 (PC))  returns 0x20000000 (0000ms, 0768ms total)
T2270 002:719 JLINK_ClrBPEx(BPHandle = 0x0000000E)  returns 0x00 (0000ms, 0768ms total)
T2270 002:719 JLINK_ReadReg(R0)  returns 0x00000000 (0000ms, 0768ms total)
T2270 002:726 JLINK_WriteMem(0x20000180, 0x0400 Bytes, ...) - Data: 2A 40 CD 89 4F F6 FF 76 06 EA 05 15 2A 43 4F F6 ... -- CPU_WriteMem(1024 bytes @ 0x20000180)  returns 0x400 (0015ms, 0783ms total)
T2270 002:741 JLINK_WriteReg(R0, 0x08001C00)  returns 0x00 (0001ms, 0784ms total)
T2270 002:742 JLINK_WriteReg(R1, 0x00000400)  returns 0x00 (0000ms, 0784ms total)
T2270 002:742 JLINK_WriteReg(R2, 0x20000180)  returns 0x00 (0000ms, 0784ms total)
T2270 002:742 JLINK_WriteReg(R3, 0x00000000)  returns 0x00 (0000ms, 0784ms total)
T2270 002:742 JLINK_WriteReg(R4, 0x00000000)  returns 0x00 (0000ms, 0784ms total)
T2270 002:742 JLINK_WriteReg(R5, 0x00000000)  returns 0x00 (0000ms, 0784ms total)
T2270 002:742 JLINK_WriteReg(R6, 0x00000000)  returns 0x00 (0000ms, 0784ms total)
T2270 002:742 JLINK_WriteReg(R7, 0x00000000)  returns 0x00 (0000ms, 0784ms total)
